
T0468 000:580 SEGGER J-Link V4.90 Log File (0000ms, 0274ms total)
T0468 000:580 DLL Compiled: Jul 28 2014 10:35:20 (0000ms, 0274ms total)
T0468 000:580 Logging started @ 2015-05-24 23:27 (0000ms, 0274ms total)
T0468 000:580 JLINK_SetWarnOutHandler(...) (0000ms, 0274ms total)
T0468 000:581 JLINK_OpenEx(...)
Firmware: J-Link ARM V8 compiled Nov 28 2014 13:44:46
Hardware: V8.00
S/N: 58009527
Feature(s): RDI,FlashDL,FlashBP,JFlash,GDBFULL  returns O.K. (0272ms, 0547ms total)
T0468 000:853 JLINK_SetErrorOutHandler(...) (0000ms, 0547ms total)
T0468 000:853 JLINK_ExecCommand("ProjectFile = "C:\Users\chong\Desktop\STM32F4Discovery\stsw-stm32070\STM32F4x7_ETH_LwIP_V1.1.6_改了一个bug\STM32F4x7_ETH_LwIP_V1.1.0\Project\FreeRTOS\httpserver_netconn\MDK-ARM\JLinkSettings.ini"", ...)  returns 0x00 (0000ms, 0547ms total)
T0468 000:853 JLINK_ExecCommand("Device = STM32F407IG", ...)Device "STM32F407IG" selected (1024 KB flash, 128 KB RAM).  returns 0x00 (0002ms, 0549ms total)
T0468 000:855 JLINK_ExecCommand("DisableConnectionTimeout", ...)  returns 0x01 (0000ms, 0549ms total)
T0468 000:855 JLINK_GetHardwareVersion()  returns 0x13880 (0000ms, 0549ms total)
T0468 000:855 JLINK_GetDLLVersion()  returns 49000 (0000ms, 0549ms total)
T0468 000:855 JLINK_GetFirmwareString(...) (0000ms, 0549ms total)
T0468 000:856 JLINK_GetDLLVersion()  returns 49000 (0000ms, 0549ms total)
T0468 000:856 JLINK_GetCompileDateTime() (0000ms, 0549ms total)
T0468 000:856 JLINK_GetFirmwareString(...) (0000ms, 0549ms total)
T0468 000:856 JLINK_GetHardwareVersion()  returns 0x13880 (0000ms, 0549ms total)
T0468 000:857 JLINK_TIF_Select(JLINKARM_TIF_SWD)  returns 0x00 (0004ms, 0553ms total)
T0468 000:861 JLINK_SetSpeed(2000) (0002ms, 0555ms total)
T0468 000:863 JLINK_GetId() >0x108 TIF>Found SWD-DP with ID 0x2BA01477 >0x0D TIF> >0x28 TIF> >0x0D TIF> >0x28 TIF> >0x0D TIF> >0x21 TIF> >0x0D TIF> >0x28 TIF> >0x0D TIF> >0x28 TIF> >0x0D TIF> >0x28 TIF> >0x0D TIF> >0x21 TIF> >0x0D TIF> >0x21 TIF> >0x0D TIF> >0x28 TIF> >0x0D TIF> >0x21 TIF> >0x0D TIF> >0x21 TIF> >0x0D TIF> >0x28 TIF> >0x0D TIF> >0x21 TIF> >0x0D TIF> >0x21 TIF> >0x108 TIF>Found SWD-DP with ID 0x2BA01477 >0x0D TIF> >0x21 TIF> >0x0D TIF> >0x28 TIF> >0x0D TIF> >0x28 TIF> >0x0D TIF> >0x21 TIF>
 >0x0D TIF> >0x28 TIF> >0x0D TIF> >0x21 TIF> >0x0D TIF> >0x21 TIF> >0x0D TIF> >0x21 TIF> >0x0D TIF> >0x21 TIF> >0x0D TIF> >0x28 TIF> >0x0D TIF> >0x28 TIF> >0x0D TIF> >0x21 TIF> >0x0D TIF> >0x28 TIF> >0x0D TIF> >0x28 TIF> >0x0D TIF> >0x28 TIF> >0x0D TIF> >0x21 TIF> >0x0D TIF> >0x21 TIF> >0x0D TIF> >0x28 TIF> >0x0D TIF> >0x21 TIF> >0x0D TIF> >0x21 TIF>Found Cortex-M4 r0p1, Little endian. -- CPU_WriteMem(4 bytes @ 0xE0002000) -- CPU_ReadMem(4 bytes @ 0xE000EDF0) -- CPU_ReadMem(4 bytes @ 0xE0002000)
FPUnit: 6 code (BP) slots and 2 literal slots -- CPU_ReadMem(4 bytes @ 0xE000EDFC) -- CPU_ReadMem(4 bytes @ 0xE0001000) -- CPU_WriteMem(4 bytes @ 0xE0001000) -- CPU_ReadMem(4 bytes @ 0xE00FF010)TPIU fitted. -- CPU_ReadMem(4 bytes @ 0xE00FF014)ETM fitted. -- CPU_ReadMem(4 bytes @ 0xE00FF018) >0x0D TIF> >0x21 TIF>  returns 0x2BA01477 (0089ms, 0644ms total)
T0468 000:952 JLINK_GetDeviceFamily()  returns 14 (0000ms, 0644ms total)
T0468 000:952 JLINK_ReadMem (0xE00FFFF0, 0x0010 Bytes, ...) -- CPU is running -- CPU_ReadMem(16 bytes @ 0xE00FFFF0) - Data: 0D 00 00 00 10 00 00 00 05 00 00 00 B1 00 00 00  returns 0x00 (0001ms, 0645ms total)
T0468 000:953 JLINK_ReadMem (0xE00FFFD0, 0x0020 Bytes, ...) -- CPU is running -- CPU_ReadMem(32 bytes @ 0xE00FFFD0) - Data: 00 00 00 00 00 00 00 00 00 00 00 00 00 00 00 00 ...  returns 0x00 (0001ms, 0646ms total)
T0468 000:954 JLINK_ReadMem (0xE00FF000, 0x0018 Bytes, ...) -- CPU is running -- CPU_ReadMem(24 bytes @ 0xE00FF000) - Data: 03 F0 F0 FF 03 20 F0 FF 03 30 F0 FF 03 10 F0 FF ...  returns 0x00 (0001ms, 0647ms total)
T0468 000:955 JLINK_ReadMemU32(0xE000ED00, 0x0001 Items, ...) -- CPU is running -- CPU_ReadMem(4 bytes @ 0xE000ED00) - Data: 41 C2 0F 41  returns 0x01 (0001ms, 0648ms total)
T0468 000:956 JLINK_ReadMemU32(0xE000EF40, 0x0001 Items, ...) -- CPU is running -- CPU_ReadMem(4 bytes @ 0xE000EF40) - Data: 21 00 11 10  returns 0x01 (0001ms, 0649ms total)
T0468 000:957 JLINK_ReadMemU32(0xE000EF44, 0x0001 Items, ...) -- CPU is running -- CPU_ReadMem(4 bytes @ 0xE000EF44) - Data: 11 00 00 11  returns 0x01 (0001ms, 0650ms total)
T0468 000:958 JLINK_SetResetType(JLINKARM_RESET_TYPE_NORMAL)  returns JLINKARM_RESET_TYPE_NORMAL (0000ms, 0650ms total)
T0468 000:958 JLINK_Reset() -- CPU is running -- CPU_WriteMem(4 bytes @ 0xE000EDF0) -- CPU is running -- CPU_WriteMem(4 bytes @ 0xE000EDFC) >0x35 TIF> -- CPU is running -- CPU_WriteMem(4 bytes @ 0xE000ED0C) -- CPU is running -- CPU_ReadMem(4 bytes @ 0xE000EDF0) -- CPU is running -- CPU_ReadMem(4 bytes @ 0xE000EDF0) -- CPU is running -- CPU_WriteMem(4 bytes @ 0xE000EDF0) -- CPU is running -- CPU_WriteMem(4 bytes @ 0xE000EDFC) -- CPU is running -- CPU_ReadMem(4 bytes @ 0xE000EDF0)
 -- CPU_WriteMem(4 bytes @ 0xE0002000) -- CPU_ReadMem(4 bytes @ 0xE000EDFC) -- CPU_ReadMem(4 bytes @ 0xE0001000) (0026ms, 0676ms total)
T0468 000:984 JLINK_ReadReg(R15 (PC))  returns 0x08000260 (0000ms, 0676ms total)
T0468 000:984 JLINK_ReadReg(XPSR)  returns 0x01000000 (0000ms, 0676ms total)
T0468 000:984 JLINK_Halt()  returns 0x00 (0000ms, 0676ms total)
T0468 000:984 JLINK_IsHalted()  returns TRUE (0000ms, 0676ms total)
T0468 000:984 JLINK_ReadMemU32(0xE000EDF0, 0x0001 Items, ...) -- CPU_ReadMem(4 bytes @ 0xE000EDF0) - Data: 03 00 03 00  returns 0x01 (0001ms, 0677ms total)
T0468 000:985 JLINK_WriteU32(0xE000EDF0, 0xA05F0003) -- CPU_WriteMem(4 bytes @ 0xE000EDF0)  returns 0x00 (0001ms, 0678ms total)
T0468 000:986 JLINK_WriteU32(0xE000EDFC, 0x01000000) -- CPU_WriteMem(4 bytes @ 0xE000EDFC)  returns 0x00 (0001ms, 0679ms total)
T0468 000:988 JLINK_GetHWStatus(...)  returns 0x00 (0000ms, 0679ms total)
T0468 000:988 JLINK_GetNumBPUnits(Type = 0xFFFFFF00)  returns 0x06 (0000ms, 0679ms total)
T0468 000:988 JLINK_GetNumBPUnits(Type = 0xF0)  returns 0x2000 (0000ms, 0679ms total)
T0468 000:988 JLINK_GetNumWPUnits()  returns 0x04 (0001ms, 0680ms total)
T0468 000:989 JLINK_GetSpeed()  returns 0x7D0 (0000ms, 0680ms total)
T0468 000:989 JLINK_ReadMemU32(0xE000E004, 0x0001 Items, ...) -- CPU_ReadMem(4 bytes @ 0xE000E004) - Data: 02 00 00 00  returns 0x01 (0001ms, 0681ms total)
T0468 000:990 JLINK_ReadMemU32(0xE000E004, 0x0001 Items, ...) -- CPU_ReadMem(4 bytes @ 0xE000E004) - Data: 02 00 00 00  returns 0x01 (0001ms, 0682ms total)
T0468 000:991 JLINK_WriteMem(0xE0001000, 0x001C Bytes, ...) - Data: 01 00 00 00 00 00 00 00 00 00 00 00 00 00 00 00 ... -- CPU_WriteMem(28 bytes @ 0xE0001000)  returns 0x1C (0001ms, 0683ms total)
T0468 000:992 JLINK_ReadMem (0xE0001000, 0x001C Bytes, ...) -- CPU_ReadMem(28 bytes @ 0xE0001000) - Data: 01 00 00 40 00 00 00 00 00 00 00 00 00 00 00 00 ...  returns 0x00 (0001ms, 0684ms total)
T0468 000:993 JLINK_ReadReg(R15 (PC))  returns 0x08000260 (0000ms, 0684ms total)
T0468 000:993 JLINK_ReadReg(XPSR)  returns 0x01000000 (0000ms, 0684ms total)
T0468 001:052 JLINK_ReadMem (0x08000000, 0x1000 Bytes, ...) -- CPU_ReadMem(4096 bytes @ 0x08000000) -- Updating C cache (4096 bytes @ 0x08000000) -- Read from C cache (4096 bytes @ 0x08000000) - Data: 40 FC 01 20 61 02 00 08 25 29 00 08 05 1E 00 08 ...  returns 0x00 (0049ms, 0733ms total)
T0468 001:102 JLINK_ReadMem (0x08001000, 0x1000 Bytes, ...) -- CPU_ReadMem(4096 bytes @ 0x08001000) -- Updating C cache (4096 bytes @ 0x08001000) -- Read from C cache (4096 bytes @ 0x08001000) - Data: 2F FD 04 9E B1 48 86 42 05 D3 B1 48 86 42 02 D2 ...  returns 0x00 (0048ms, 0781ms total)
T0468 001:151 JLINK_ReadMem (0x08002000, 0x1000 Bytes, ...) -- CPU_ReadMem(4096 bytes @ 0x08002000) -- Updating C cache (4096 bytes @ 0x08002000) -- Read from C cache (4096 bytes @ 0x08002000) - Data: 1C B5 01 21 58 20 00 F0 DB FC 01 21 08 46 00 F0 ...  returns 0x00 (0048ms, 0829ms total)
T0468 001:200 JLINK_ReadMem (0x08003000, 0x1000 Bytes, ...) -- CPU_ReadMem(4096 bytes @ 0x08003000) -- Updating C cache (4096 bytes @ 0x08003000) -- Read from C cache (4096 bytes @ 0x08003000) - Data: 17 48 00 78 8D F8 06 00 01 A9 01 20 FF F7 84 FF ...  returns 0x00 (0048ms, 0877ms total)
T0468 001:249 JLINK_ReadMem (0x08004000, 0x1000 Bytes, ...) -- CPU_ReadMem(4096 bytes @ 0x08004000) -- Updating C cache (4096 bytes @ 0x08004000) -- Read from C cache (4096 bytes @ 0x08004000) - Data: 02 D1 DD F8 0C 90 01 E0 DD F8 08 90 A8 89 10 F4 ...  returns 0x00 (0048ms, 0925ms total)
T0468 001:298 JLINK_ReadMem (0x08005000, 0x1000 Bytes, ...) -- CPU_ReadMem(4096 bytes @ 0x08005000) -- Updating C cache (4096 bytes @ 0x08005000) -- Read from C cache (4096 bytes @ 0x08005000) - Data: 10 2B 51 EC 10 0B FB F7 4A FA 41 EC 10 0B 10 BD ...  returns 0x00 (0048ms, 0973ms total)
T0468 001:347 JLINK_ReadMem (0x08006000, 0x1000 Bytes, ...) -- CPU_ReadMem(4096 bytes @ 0x08006000) -- Updating C cache (4096 bytes @ 0x08006000) -- Read from C cache (4096 bytes @ 0x08006000) - Data: B0 F8 44 40 10 46 52 1C 08 5C 20 44 A3 F8 44 00 ...  returns 0x00 (0048ms, 1021ms total)
T0468 001:396 JLINK_ReadMem (0x08007000, 0x1000 Bytes, ...) -- CPU_ReadMem(4096 bytes @ 0x08007000) -- Updating C cache (4096 bytes @ 0x08007000) -- Read from C cache (4096 bytes @ 0x08007000) - Data: 60 7B 0A 28 05 DA 60 7B 4F F4 FA 61 10 FB 01 F0 ...  returns 0x00 (0048ms, 1069ms total)
T0468 001:445 JLINK_ReadMem (0x08008000, 0x1000 Bytes, ...) -- CPU_ReadMem(4096 bytes @ 0x08008000) -- Updating C cache (4096 bytes @ 0x08008000) -- Read from C cache (4096 bytes @ 0x08008000) - Data: 0E 46 14 46 00 BF 00 BF 04 EB 84 00 15 49 01 EB ...  returns 0x00 (0048ms, 1117ms total)
T0468 001:494 JLINK_ReadMem (0x08009000, 0x1000 Bytes, ...) -- CPU_ReadMem(4096 bytes @ 0x08009000) -- Updating C cache (4096 bytes @ 0x08009000) -- Read from C cache (4096 bytes @ 0x08009000) - Data: 40 45 02 DB 30 89 48 45 0E DA 70 89 40 45 01 DA ...  returns 0x00 (0048ms, 1165ms total)
T0468 001:543 JLINK_ReadMem (0x0800A000, 0x1000 Bytes, ...) -- CPU_ReadMem(4096 bytes @ 0x0800A000) -- Updating C cache (4096 bytes @ 0x0800A000) -- Read from C cache (4096 bytes @ 0x0800A000) - Data: C9 FB 00 BF 6F F0 0B 00 95 E7 07 98 06 89 04 E0 ...  returns 0x00 (0048ms, 1213ms total)
T0468 001:592 JLINK_ReadMem (0x0800B000, 0x1000 Bytes, ...) -- CPU_ReadMem(4096 bytes @ 0x0800B000) -- Updating C cache (4096 bytes @ 0x0800B000) -- Read from C cache (4096 bytes @ 0x0800B000) - Data: 08 DA 48 42 84 B2 00 BF 50 89 A0 42 01 DA 01 20 ...  returns 0x00 (0048ms, 1261ms total)
T0468 001:641 JLINK_ReadMem (0x0800C000, 0x1000 Bytes, ...) -- CPU_ReadMem(4096 bytes @ 0x0800C000) -- Updating C cache (4096 bytes @ 0x0800C000) -- Read from C cache (4096 bytes @ 0x0800C000) - Data: A0 68 08 44 A0 60 D4 E9 01 10 88 42 13 D3 20 68 ...  returns 0x00 (0048ms, 1309ms total)
T0468 001:690 JLINK_ReadMem (0x0800D000, 0x1000 Bytes, ...) -- CPU_ReadMem(4096 bytes @ 0x0800D000) -- Updating C cache (4096 bytes @ 0x0800D000) -- Read from C cache (4096 bytes @ 0x0800D000) - Data: B8 8B FC F7 00 FB 21 69 48 80 50 46 FC F7 EE FA ...  returns 0x00 (0048ms, 1357ms total)
T0468 001:739 JLINK_ReadMem (0x0800E000, 0x1000 Bytes, ...) -- CPU_ReadMem(4096 bytes @ 0x0800E000) -- Updating C cache (4096 bytes @ 0x0800E000) -- Read from C cache (4096 bytes @ 0x0800E000) - Data: 02 00 A0 77 00 BF 00 20 E4 E7 A0 7F 10 F0 10 0F ...  returns 0x00 (0048ms, 1405ms total)
T0468 001:788 JLINK_ReadMem (0x0800F000, 0x1000 Bytes, ...) -- CPU_ReadMem(4096 bytes @ 0x0800F000) -- Updating C cache (4096 bytes @ 0x0800F000) -- Read from C cache (4096 bytes @ 0x0800F000) - Data: F0 41 07 46 0D 46 14 46 1E 46 3C B1 21 89 28 46 ...  returns 0x00 (0048ms, 1453ms total)
T0468 001:837 JLINK_ReadMem (0x08010000, 0x1000 Bytes, ...) -- CPU_ReadMem(4096 bytes @ 0x08010000) -- Updating C cache (4096 bytes @ 0x08010000) -- Read from C cache (4096 bytes @ 0x08010000) - Data: 65 71 20 65 72 72 6F 20 63 6F 64 65 20 69 73 20 ...  returns 0x00 (0048ms, 1501ms total)
T0468 001:886 JLINK_ReadMem (0x08011000, 0x1000 Bytes, ...) -- CPU_ReadMem(4096 bytes @ 0x08011000) -- Updating C cache (4096 bytes @ 0x08011000) -- Read from C cache (4096 bytes @ 0x08011000) - Data: 00 F0 AC F8 84 F8 4D 70 A1 46 02 E0 20 46 FF F7 ...  returns 0x00 (0048ms, 1549ms total)
T0468 001:935 JLINK_ReadMem (0x08012000, 0x1000 Bytes, ...) -- CPU_ReadMem(4096 bytes @ 0x08012000) -- Updating C cache (4096 bytes @ 0x08012000) -- Read from C cache (4096 bytes @ 0x08012000) - Data: 86 C3 86 C3 00 00 00 00 00 00 00 00 00 00 00 00 ...  returns 0x00 (0048ms, 1597ms total)
T0468 001:984 JLINK_ReadMem (0x08013000, 0x1000 Bytes, ...) -- CPU_ReadMem(4096 bytes @ 0x08013000) -- Updating C cache (4096 bytes @ 0x08013000) -- Read from C cache (4096 bytes @ 0x08013000) - Data: 00 00 00 40 00 40 00 58 00 64 00 44 00 44 00 44 ...  returns 0x00 (0048ms, 1645ms total)
T0468 002:033 JLINK_ReadMem (0x08014000, 0x056C Bytes, ...) -- CPU_ReadMem(1408 bytes @ 0x08014000) -- Updating C cache (1408 bytes @ 0x08014000) -- Read from C cache (1388 bytes @ 0x08014000) - Data: 10 00 10 00 10 00 10 00 10 00 10 00 10 00 10 00 ...  returns 0x00 (0016ms, 1661ms total)
T0468 002:103 JLINK_SetResetType(JLINKARM_RESET_TYPE_NORMAL)  returns JLINKARM_RESET_TYPE_NORMAL (0000ms, 1661ms total)
T0468 002:103 JLINK_Reset() -- CPU_WriteMem(4 bytes @ 0xE000EDF0) -- CPU_WriteMem(4 bytes @ 0xE000EDFC) >0x35 TIF> -- CPU_WriteMem(4 bytes @ 0xE000ED0C) -- CPU_ReadMem(4 bytes @ 0xE000EDF0) -- CPU_ReadMem(4 bytes @ 0xE000EDF0) -- CPU_WriteMem(4 bytes @ 0xE000EDF0) -- CPU_WriteMem(4 bytes @ 0xE000EDFC) -- CPU is running -- CPU_ReadMem(4 bytes @ 0xE000EDF0) -- CPU_WriteMem(4 bytes @ 0xE0002000) -- CPU_ReadMem(4 bytes @ 0xE000EDFC) -- CPU_ReadMem(4 bytes @ 0xE0001000) (0026ms, 1687ms total)
T0468 002:129 JLINK_ReadReg(R15 (PC))  returns 0x08000260 (0000ms, 1687ms total)
T0468 002:129 JLINK_ReadReg(XPSR)  returns 0x01000000 (0000ms, 1687ms total)
T0468 002:130 JLINK_ReadMem (0x08000260, 0x003C Bytes, ...) -- CPU_ReadMem(128 bytes @ 0x08000240) -- Updating C cache (128 bytes @ 0x08000240) -- Read from C cache (60 bytes @ 0x08000260) - Data: 06 48 80 47 06 48 00 47 FE E7 FE E7 FE E7 FE E7 ...  returns 0x00 (0002ms, 1689ms total)
T0468 003:473 JLINK_ReadMem (0x20000242, 0x0007 Bytes, ...) -- CPU_ReadMem(64 bytes @ 0x20000240) -- Updating C cache (64 bytes @ 0x20000240) -- Read from C cache (7 bytes @ 0x20000242) - Data: 00 00 00 00 00 00 00  returns 0x00 (0003ms, 1692ms total)
T2288 003:525 JLINK_SetBPEx(Addr = 0x080096A8, Type = 0xFFFFFFF2)  returns 0x00000001 (0000ms, 1692ms total)
T2288 003:525 JLINK_SetBPEx(Addr = 0x0800B64A, Type = 0xFFFFFFF2)  returns 0x00000002 (0000ms, 1692ms total)
T2288 003:525 JLINK_Go() -- CPU_WriteMem(4 bytes @ 0xE0002000) -- CPU_WriteMem(4 bytes @ 0xE0002008) -- CPU_WriteMem(4 bytes @ 0xE0002000) -- CPU_WriteMem(4 bytes @ 0xE000200C) -- CPU_WriteMem(4 bytes @ 0xE0002010) -- CPU_WriteMem(4 bytes @ 0xE0002014) -- CPU_WriteMem(4 bytes @ 0xE0002018) -- CPU_WriteMem(4 bytes @ 0xE000201C) -- CPU_WriteMem(4 bytes @ 0xE0001004) (0011ms, 1703ms total)
T2288 003:637 JLINK_IsHalted()  returns TRUE (0005ms, 1708ms total)
T2288 003:642 JLINK_Halt()  returns 0x00 (0000ms, 1703ms total)
T2288 003:642 JLINK_IsHalted()  returns TRUE (0000ms, 1703ms total)
T2288 003:642 JLINK_IsHalted()  returns TRUE (0000ms, 1703ms total)
T2288 003:642 JLINK_IsHalted()  returns TRUE (0000ms, 1703ms total)
T2288 003:642 JLINK_ReadReg(R15 (PC))  returns 0x080096A8 (0000ms, 1703ms total)
T2288 003:642 JLINK_ReadReg(XPSR)  returns 0x61000000 (0000ms, 1703ms total)
T2288 003:642 JLINK_ClrBPEx(BPHandle = 0x00000001)  returns 0x00 (0000ms, 1703ms total)
T2288 003:642 JLINK_ClrBPEx(BPHandle = 0x00000002)  returns 0x00 (0000ms, 1703ms total)
T2288 003:642 JLINK_ReadMemU32(0xE000ED30, 0x0001 Items, ...) -- CPU_ReadMem(4 bytes @ 0xE000ED30) - Data: 03 00 00 00  returns 0x01 (0001ms, 1704ms total)
T2288 003:643 JLINK_ReadMemU32(0xE0001028, 0x0001 Items, ...) -- CPU_ReadMem(4 bytes @ 0xE0001028) - Data: 00 00 00 00  returns 0x01 (0001ms, 1705ms total)
T2288 003:644 JLINK_ReadMemU32(0xE0001038, 0x0001 Items, ...) -- CPU_ReadMem(4 bytes @ 0xE0001038) - Data: 00 02 00 00  returns 0x01 (0001ms, 1706ms total)
T2288 003:645 JLINK_ReadMemU32(0xE0001048, 0x0001 Items, ...) -- CPU_ReadMem(4 bytes @ 0xE0001048) - Data: 00 00 00 00  returns 0x01 (0001ms, 1707ms total)
T2288 003:646 JLINK_ReadMemU32(0xE0001058, 0x0001 Items, ...) -- CPU_ReadMem(4 bytes @ 0xE0001058) - Data: 00 00 00 00  returns 0x01 (0001ms, 1708ms total)
T2288 003:647 JLINK_ReadReg(R0)  returns 0x080096A9 (0000ms, 1708ms total)
T2288 003:647 JLINK_ReadReg(R1)  returns 0x2001FC40 (0000ms, 1708ms total)
T2288 003:647 JLINK_ReadReg(R2)  returns 0x00000000 (0000ms, 1708ms total)
T2288 003:647 JLINK_ReadReg(R3)  returns 0x08005029 (0000ms, 1708ms total)
T2288 003:647 JLINK_ReadReg(R4)  returns 0x08014258 (0000ms, 1708ms total)
T2288 003:647 JLINK_ReadReg(R5)  returns 0x08014258 (0000ms, 1708ms total)
T2288 003:647 JLINK_ReadReg(R6)  returns 0x00000000 (0000ms, 1708ms total)
T2288 003:647 JLINK_ReadReg(R7)  returns 0x00000000 (0000ms, 1708ms total)
T2288 003:647 JLINK_ReadReg(R8)  returns 0x00000000 (0001ms, 1709ms total)
T2288 003:648 JLINK_ReadReg(R9)  returns 0x00000000 (0000ms, 1709ms total)
T2288 003:648 JLINK_ReadReg(R10)  returns 0x00000000 (0000ms, 1709ms total)
T2288 003:648 JLINK_ReadReg(R11)  returns 0x00000000 (0000ms, 1709ms total)
T2288 003:648 JLINK_ReadReg(R12)  returns 0x00000000 (0000ms, 1709ms total)
T2288 003:648 JLINK_ReadReg(R13 (SP))  returns 0x2001FC40 (0000ms, 1709ms total)
T2288 003:648 JLINK_ReadReg(R14)  returns 0x0800093D (0000ms, 1709ms total)
T2288 003:648 JLINK_ReadReg(R15 (PC))  returns 0x080096A8 (0000ms, 1709ms total)
T2288 003:648 JLINK_ReadReg(XPSR)  returns 0x61000000 (0000ms, 1709ms total)
T2288 003:648 JLINK_ReadReg(MSP)  returns 0x2001FC40 (0000ms, 1709ms total)
T2288 003:648 JLINK_ReadReg(PSP)  returns 0x00000000 (0000ms, 1709ms total)
T2288 003:648 JLINK_ReadReg(CFBP)  returns 0x00000000 (0000ms, 1709ms total)
T2288 003:648 JLINK_ReadReg(FPSCR)  returns 0x00000000 (0006ms, 1715ms total)
T2288 003:654 JLINK_ReadReg(FPS0)  returns 0x00000000 (0000ms, 1715ms total)
T2288 003:654 JLINK_ReadReg(FPS1)  returns 0x00000000 (0000ms, 1715ms total)
T2288 003:654 JLINK_ReadReg(FPS2)  returns 0x00000000 (0000ms, 1715ms total)
T2288 003:654 JLINK_ReadReg(FPS3)  returns 0x00000000 (0000ms, 1715ms total)
T2288 003:654 JLINK_ReadReg(FPS4)  returns 0x00000000 (0000ms, 1715ms total)
T2288 003:654 JLINK_ReadReg(FPS5)  returns 0x00000000 (0000ms, 1715ms total)
T2288 003:654 JLINK_ReadReg(FPS6)  returns 0x00000000 (0000ms, 1715ms total)
T2288 003:654 JLINK_ReadReg(FPS7)  returns 0x00000000 (0000ms, 1715ms total)
T2288 003:654 JLINK_ReadReg(FPS8)  returns 0x00000000 (0000ms, 1715ms total)
T2288 003:654 JLINK_ReadReg(FPS9)  returns 0x00000000 (0000ms, 1715ms total)
T2288 003:654 JLINK_ReadReg(FPS10)  returns 0x00000000 (0000ms, 1715ms total)
T2288 003:654 JLINK_ReadReg(FPS11)  returns 0x00000000 (0000ms, 1715ms total)
T2288 003:654 JLINK_ReadReg(FPS12)  returns 0x00000000 (0000ms, 1715ms total)
T2288 003:654 JLINK_ReadReg(FPS13)  returns 0x00000000 (0000ms, 1715ms total)
T2288 003:654 JLINK_ReadReg(FPS14)  returns 0x00000000 (0000ms, 1715ms total)
T2288 003:654 JLINK_ReadReg(FPS15)  returns 0x00000000 (0000ms, 1715ms total)
T2288 003:654 JLINK_ReadReg(FPS16)  returns 0x00000000 (0001ms, 1716ms total)
T2288 003:655 JLINK_ReadReg(FPS17)  returns 0x00000000 (0000ms, 1716ms total)
T2288 003:655 JLINK_ReadReg(FPS18)  returns 0x00000000 (0000ms, 1716ms total)
T2288 003:655 JLINK_ReadReg(FPS19)  returns 0x00000000 (0000ms, 1716ms total)
T2288 003:655 JLINK_ReadReg(FPS20)  returns 0x00000000 (0000ms, 1716ms total)
T2288 003:655 JLINK_ReadReg(FPS31)  returns 0x00000000 (0000ms, 1716ms total)
T2288 003:655 JLINK_ReadReg(FPS7)  returns 0x00000000 (0000ms, 1716ms total)
T2288 003:655 JLINK_ReadReg(FPS8)  returns 0x00000000 (0000ms, 1716ms total)
T2288 003:655 JLINK_ReadReg(FPS9)  returns 0x00000000 (0000ms, 1716ms total)
T2288 003:655 JLINK_ReadReg(FPS10)  returns 0x00000000 (0000ms, 1716ms total)
T2288 003:655 JLINK_ReadReg(FPS11)  returns 0x00000000 (0000ms, 1716ms total)
T2288 003:655 JLINK_ReadReg(FPS12)  returns 0x00000000 (0000ms, 1716ms total)
T2288 003:655 JLINK_ReadReg(FPS13)  returns 0x00000000 (0000ms, 1716ms total)
T2288 003:655 JLINK_ReadReg(FPS14)  returns 0x00000000 (0000ms, 1716ms total)
T2288 003:655 JLINK_ReadReg(FPS15)  returns 0x00000000 (0000ms, 1716ms total)
T2288 003:655 JLINK_ReadReg(FPS16)  returns 0x00000000 (0000ms, 1716ms total)
T0468 003:667 JLINK_ReadMemU32(0xE0001004, 0x0001 Items, ...) -- CPU_ReadMem(4 bytes @ 0xE0001004) - Data: A5 4C 03 00  returns 0x01 (0001ms, 1717ms total)
T0468 003:671 JLINK_ReadMem (0x20000242, 0x0007 Bytes, ...) -- CPU_ReadMem(64 bytes @ 0x20000240) -- Updating C cache (64 bytes @ 0x20000240) -- Read from C cache (7 bytes @ 0x20000242) - Data: 00 00 00 00 00 00 00  returns 0x00 (0002ms, 1719ms total)
T2288 021:676 JLINK_SetBPEx(Addr = 0x0800B64A, Type = 0xFFFFFFF2)  returns 0x00000003 (0001ms, 1720ms total)
T2288 021:677 JLINK_SetBPEx(Addr = 0x0800288A, Type = 0xFFFFFFF2)  returns 0x00000004 (0000ms, 1720ms total)
T2288 021:677 JLINK_Go() -- CPU_WriteMem(4 bytes @ 0xE0002000) -- CPU_WriteMem(4 bytes @ 0xE0002000) -- CPU_WriteMem(4 bytes @ 0xE0002008) -- CPU_WriteMem(4 bytes @ 0xE000200C) (0006ms, 1726ms total)
T2288 021:784 JLINK_IsHalted()  returns TRUE (0005ms, 1731ms total)
T2288 021:789 JLINK_Halt()  returns 0x00 (0000ms, 1726ms total)
T2288 021:789 JLINK_IsHalted()  returns TRUE (0000ms, 1726ms total)
T2288 021:789 JLINK_IsHalted()  returns TRUE (0000ms, 1726ms total)
T2288 021:789 JLINK_IsHalted()  returns TRUE (0000ms, 1726ms total)
T2288 021:789 JLINK_ReadReg(R15 (PC))  returns 0x0800288A (0000ms, 1726ms total)
T2288 021:789 JLINK_ReadReg(XPSR)  returns 0x01000000 (0000ms, 1726ms total)
T2288 021:789 JLINK_ClrBPEx(BPHandle = 0x00000003)  returns 0x00 (0000ms, 1726ms total)
T2288 021:789 JLINK_ClrBPEx(BPHandle = 0x00000004)  returns 0x00 (0000ms, 1726ms total)
T2288 021:789 JLINK_ReadMemU32(0xE000ED30, 0x0001 Items, ...) -- CPU_ReadMem(4 bytes @ 0xE000ED30) - Data: 03 00 00 00  returns 0x01 (0001ms, 1727ms total)
T2288 021:790 JLINK_ReadMemU32(0xE0001028, 0x0001 Items, ...) -- CPU_ReadMem(4 bytes @ 0xE0001028) - Data: 00 00 00 00  returns 0x01 (0001ms, 1728ms total)
T2288 021:791 JLINK_ReadMemU32(0xE0001038, 0x0001 Items, ...) -- CPU_ReadMem(4 bytes @ 0xE0001038) - Data: 00 02 00 00  returns 0x01 (0001ms, 1729ms total)
T2288 021:792 JLINK_ReadMemU32(0xE0001048, 0x0001 Items, ...) -- CPU_ReadMem(4 bytes @ 0xE0001048) - Data: 00 00 00 00  returns 0x01 (0001ms, 1730ms total)
T2288 021:793 JLINK_ReadMemU32(0xE0001058, 0x0001 Items, ...) -- CPU_ReadMem(4 bytes @ 0xE0001058) - Data: 00 00 00 00  returns 0x01 (0001ms, 1731ms total)
T2288 021:794 JLINK_ReadReg(R0)  returns 0x00000000 (0000ms, 1731ms total)
T2288 021:794 JLINK_ReadReg(R1)  returns 0xA5A5A5A5 (0000ms, 1731ms total)
T2288 021:794 JLINK_ReadReg(R2)  returns 0xA5A5A5A5 (0000ms, 1731ms total)
T2288 021:794 JLINK_ReadReg(R3)  returns 0xA5A5A5A5 (0000ms, 1731ms total)
T2288 021:794 JLINK_ReadReg(R4)  returns 0xA5A5A5A5 (0000ms, 1731ms total)
T2288 021:794 JLINK_ReadReg(R5)  returns 0xA5A5A5A5 (0000ms, 1731ms total)
T2288 021:794 JLINK_ReadReg(R6)  returns 0xA5A5A5A5 (0000ms, 1731ms total)
T2288 021:794 JLINK_ReadReg(R7)  returns 0xA5A5A5A5 (0000ms, 1731ms total)
T2288 021:794 JLINK_ReadReg(R8)  returns 0xA5A5A5A5 (0000ms, 1731ms total)
T2288 021:794 JLINK_ReadReg(R9)  returns 0xA5A5A5A5 (0000ms, 1731ms total)
T2288 021:794 JLINK_ReadReg(R10)  returns 0xA5A5A5A5 (0000ms, 1731ms total)
T2288 021:794 JLINK_ReadReg(R11)  returns 0xA5A5A5A5 (0000ms, 1731ms total)
T2288 021:794 JLINK_ReadReg(R12)  returns 0xA5A5A5A5 (0001ms, 1732ms total)
T2288 021:795 JLINK_ReadReg(R13 (SP))  returns 0x2000F690 (0000ms, 1732ms total)
T2288 021:795 JLINK_ReadReg(R14)  returns 0x00000000 (0000ms, 1732ms total)
T2288 021:795 JLINK_ReadReg(R15 (PC))  returns 0x0800288A (0000ms, 1732ms total)
T2288 021:795 JLINK_ReadReg(XPSR)  returns 0x01000000 (0000ms, 1732ms total)
T2288 021:795 JLINK_ReadReg(MSP)  returns 0x2001FC20 (0000ms, 1732ms total)
T2288 021:795 JLINK_ReadReg(PSP)  returns 0x2000F690 (0000ms, 1732ms total)
T2288 021:795 JLINK_ReadReg(CFBP)  returns 0x02000000 (0000ms, 1732ms total)
T2288 021:795 JLINK_ReadReg(FPSCR)  returns 0x00000000 (0006ms, 1738ms total)
T2288 021:801 JLINK_ReadReg(FPS0)  returns 0x00000000 (0000ms, 1738ms total)
T2288 021:801 JLINK_ReadReg(FPS1)  returns 0x00000000 (0000ms, 1738ms total)
T2288 021:801 JLINK_ReadReg(FPS2)  returns 0x00000000 (0000ms, 1738ms total)
T2288 021:801 JLINK_ReadReg(FPS3)  returns 0x00000000 (0000ms, 1738ms total)
T2288 021:801 JLINK_ReadReg(FPS4)  returns 0x00000000 (0000ms, 1738ms total)
T2288 021:801 JLINK_ReadReg(FPS5)  returns 0x00000000 (0000ms, 1738ms total)
T2288 021:801 JLINK_ReadReg(FPS6)  returns 0x00000000 (0000ms, 1738ms total)
T2288 021:801 JLINK_ReadReg(FPS7)  returns 0x00000000 (0000ms, 1738ms total)
T2288 021:801 JLINK_ReadReg(FPS8)  returns 0x00000000 (0000ms, 1738ms total)
T2288 021:801 JLINK_ReadReg(FPS9)  returns 0x00000000 (0000ms, 1738ms total)
T2288 021:801 JLINK_ReadReg(FPS10)  returns 0x00000000 (0000ms, 1738ms total)
T2288 021:801 JLINK_ReadReg(FPS11)  returns 0x00000000 (0000ms, 1738ms total)
T2288 021:801 JLINK_ReadReg(FPS12)  returns 0x00000000 (0000ms, 1738ms total)
T2288 021:801 JLINK_ReadReg(FPS13)  returns 0x00000000 (0000ms, 1738ms total)
T2288 021:801 JLINK_ReadReg(FPS14)  returns 0x00000000 (0000ms, 1738ms total)
T2288 021:801 JLINK_ReadReg(FPS15)  returns 0x00000000 (0000ms, 1738ms total)
T2288 021:801 JLINK_ReadReg(FPS16)  returns 0x00000000 (0000ms, 1738ms total)
T2288 021:801 JLINK_ReadReg(FPS17)  returns 0x00000000 (0001ms, 1739ms total)
T2288 021:802 JLINK_ReadReg(FPS18)  returns 0x00000000 (0000ms, 1739ms total)
T2288 021:802 JLINK_ReadReg(FPS19)  returns 0x00000000 (0000ms, 1739ms total)
T2288 021:802 JLINK_ReadReg(FPS20)  returns 0x00000000 (0000ms, 1739ms total)
T2288 021:802 JLINK_ReadReg(FPS31)  returns 0x00000000 (0000ms, 1739ms total)
T2288 021:802 JLINK_ReadReg(FPS7)  returns 0x00000000 (0000ms, 1739ms total)
T2288 021:802 JLINK_ReadReg(FPS8)  returns 0x00000000 (0000ms, 1739ms total)
T2288 021:802 JLINK_ReadReg(FPS9)  returns 0x00000000 (0000ms, 1739ms total)
T2288 021:802 JLINK_ReadReg(FPS10)  returns 0x00000000 (0000ms, 1739ms total)
T2288 021:802 JLINK_ReadReg(FPS11)  returns 0x00000000 (0000ms, 1739ms total)
T2288 021:802 JLINK_ReadReg(FPS12)  returns 0x00000000 (0000ms, 1739ms total)
T2288 021:802 JLINK_ReadReg(FPS13)  returns 0x00000000 (0000ms, 1739ms total)
T2288 021:802 JLINK_ReadReg(FPS14)  returns 0x00000000 (0000ms, 1739ms total)
T2288 021:802 JLINK_ReadReg(FPS15)  returns 0x00000000 (0000ms, 1739ms total)
T2288 021:802 JLINK_ReadReg(FPS16)  returns 0x00000000 (0000ms, 1739ms total)
T0468 021:802 JLINK_ReadMem (0x2000F6A4, 0x0004 Bytes, ...) -- CPU_ReadMem(64 bytes @ 0x2000F680) -- Updating C cache (64 bytes @ 0x2000F680) -- Read from C cache (4 bytes @ 0x2000F6A4) - Data: 00 00 00 00  returns 0x00 (0002ms, 1741ms total)
T0468 021:804 JLINK_ReadMem (0x2000F6A0, 0x0004 Bytes, ...) -- Read from C cache (4 bytes @ 0x2000F6A0) - Data: A5 A5 A5 A5  returns 0x00 (0000ms, 1741ms total)
T0468 021:808 JLINK_ReadMem (0x00000000, 0x0004 Bytes, ...) -- CPU_ReadMem(4 bytes @ 0x00000004) -- CPU_ReadMem(64 bytes @ 0x08000000) -- Updating C cache (64 bytes @ 0x08000000) -- Read from C cache (4 bytes @ 0x08000000) - Data: 40 FC 01 20  returns 0x00 (0003ms, 1744ms total)
T0468 021:818 JLINK_ReadMemU32(0xE0001004, 0x0001 Items, ...) -- CPU_ReadMem(4 bytes @ 0xE0001004) - Data: 19 71 03 00  returns 0x01 (0001ms, 1745ms total)
T0468 021:820 JLINK_ReadMem (0x20000242, 0x0007 Bytes, ...) -- CPU_ReadMem(64 bytes @ 0x20000240) -- Updating C cache (64 bytes @ 0x20000240) -- Read from C cache (7 bytes @ 0x20000242) - Data: 00 00 00 00 00 00 00  returns 0x00 (0002ms, 1747ms total)
T2288 023:244 JLINK_ReadMem (0x0800288A, 0x0002 Bytes, ...) -- CPU_ReadMem(64 bytes @ 0x08002880) -- Updating C cache (64 bytes @ 0x08002880) -- Read from C cache (2 bytes @ 0x0800288A) - Data: FE F7  returns 0x00 (0004ms, 1751ms total)
T2288 023:248 JLINK_ReadMem (0x0800288C, 0x003C Bytes, ...) -- CPU_ReadMem(64 bytes @ 0x080028C0) -- Updating C cache (64 bytes @ 0x080028C0) -- Read from C cache (60 bytes @ 0x0800288C) - Data: 24 F9 FF F7 21 FD FE F7 3D F9 FE F7 D5 F8 FF F7 ...  returns 0x00 (0002ms, 1753ms total)
T2288 023:250 JLINK_Step() -- Read from C cache (2 bytes @ 0x0800288A) -- Read from C cache (2 bytes @ 0x0800288C) -- Simulated  returns 0x00 (0001ms, 1754ms total)
T2288 023:251 JLINK_ReadReg(R15 (PC))  returns 0x08000AD6 (0000ms, 1754ms total)
T2288 023:251 JLINK_ReadReg(XPSR)  returns 0x01000000 (0000ms, 1754ms total)
T2288 023:251 JLINK_SetBPEx(Addr = 0x0800288E, Type = 0xFFFFFFF2)  returns 0x00000005 (0000ms, 1754ms total)
T2288 023:251 JLINK_SetBPEx(Addr = 0x0800B64A, Type = 0xFFFFFFF2)  returns 0x00000006 (0000ms, 1754ms total)
T2288 023:251 JLINK_SetBPEx(Addr = 0x0800288A, Type = 0xFFFFFFF2)  returns 0x00000007 (0000ms, 1754ms total)
T2288 023:251 JLINK_Go() -- CPU_WriteMem(4 bytes @ 0xE0002000) -- CPU_WriteMem(4 bytes @ 0xE0002000) -- CPU_WriteMem(4 bytes @ 0xE0002000) -- CPU_WriteMem(4 bytes @ 0xE0002008) -- CPU_WriteMem(4 bytes @ 0xE000200C) -- CPU_WriteMem(4 bytes @ 0xE0002010) -- CPU_WriteMem(4 bytes @ 0xE0001004) (0009ms, 1763ms total)
T2288 023:361 JLINK_IsHalted()  returns TRUE (0005ms, 1768ms total)
T2288 023:366 JLINK_Halt()  returns 0x00 (0000ms, 1763ms total)
T2288 023:366 JLINK_IsHalted()  returns TRUE (0000ms, 1763ms total)
T2288 023:366 JLINK_IsHalted()  returns TRUE (0000ms, 1763ms total)
T2288 023:366 JLINK_IsHalted()  returns TRUE (0000ms, 1763ms total)
T2288 023:366 JLINK_ReadReg(R15 (PC))  returns 0x0800288E (0000ms, 1763ms total)
T2288 023:366 JLINK_ReadReg(XPSR)  returns 0x01000000 (0000ms, 1763ms total)
T2288 023:366 JLINK_ClrBPEx(BPHandle = 0x00000005)  returns 0x00 (0000ms, 1763ms total)
T2288 023:366 JLINK_ClrBPEx(BPHandle = 0x00000006)  returns 0x00 (0000ms, 1763ms total)
T2288 023:366 JLINK_ClrBPEx(BPHandle = 0x00000007)  returns 0x00 (0000ms, 1763ms total)
T2288 023:366 JLINK_ReadMemU32(0xE000ED30, 0x0001 Items, ...) -- CPU_ReadMem(4 bytes @ 0xE000ED30) - Data: 03 00 00 00  returns 0x01 (0001ms, 1764ms total)
T2288 023:367 JLINK_ReadMemU32(0xE0001028, 0x0001 Items, ...) -- CPU_ReadMem(4 bytes @ 0xE0001028) - Data: 00 00 00 00  returns 0x01 (0001ms, 1765ms total)
T2288 023:368 JLINK_ReadMemU32(0xE0001038, 0x0001 Items, ...) -- CPU_ReadMem(4 bytes @ 0xE0001038) - Data: 00 02 00 00  returns 0x01 (0001ms, 1766ms total)
T2288 023:369 JLINK_ReadMemU32(0xE0001048, 0x0001 Items, ...) -- CPU_ReadMem(4 bytes @ 0xE0001048) - Data: 00 00 00 00  returns 0x01 (0001ms, 1767ms total)
T2288 023:370 JLINK_ReadMemU32(0xE0001058, 0x0001 Items, ...) -- CPU_ReadMem(4 bytes @ 0xE0001058) - Data: 00 00 00 00  returns 0x01 (0001ms, 1768ms total)
T2288 023:371 JLINK_ReadReg(R0)  returns 0x0001C200 (0000ms, 1768ms total)
T2288 023:371 JLINK_ReadReg(R1)  returns 0x00000000 (0000ms, 1768ms total)
T2288 023:371 JLINK_ReadReg(R2)  returns 0x000C0000 (0000ms, 1768ms total)
T2288 023:371 JLINK_ReadReg(R3)  returns 0xA5A50000 (0000ms, 1768ms total)
T2288 023:371 JLINK_ReadReg(R4)  returns 0xA5A5A5A5 (0000ms, 1768ms total)
T2288 023:371 JLINK_ReadReg(R5)  returns 0xA5A5A5A5 (0000ms, 1768ms total)
T2288 023:371 JLINK_ReadReg(R6)  returns 0xA5A5A5A5 (0000ms, 1768ms total)
T2288 023:371 JLINK_ReadReg(R7)  returns 0xA5A5A5A5 (0000ms, 1768ms total)
T2288 023:371 JLINK_ReadReg(R8)  returns 0xA5A5A5A5 (0000ms, 1768ms total)
T2288 023:371 JLINK_ReadReg(R9)  returns 0xA5A5A5A5 (0000ms, 1768ms total)
T2288 023:371 JLINK_ReadReg(R10)  returns 0xA5A5A5A5 (0000ms, 1768ms total)
T2288 023:371 JLINK_ReadReg(R11)  returns 0xA5A5A5A5 (0000ms, 1768ms total)
T2288 023:371 JLINK_ReadReg(R12)  returns 0x00000150 (0000ms, 1768ms total)
T2288 023:371 JLINK_ReadReg(R13 (SP))  returns 0x2000F690 (0000ms, 1768ms total)
T2288 023:371 JLINK_ReadReg(R14)  returns 0x08003729 (0000ms, 1768ms total)
T2288 023:371 JLINK_ReadReg(R15 (PC))  returns 0x0800288E (0000ms, 1768ms total)
T2288 023:371 JLINK_ReadReg(XPSR)  returns 0x01000000 (0001ms, 1769ms total)
T2288 023:372 JLINK_ReadReg(MSP)  returns 0x2001FC20 (0000ms, 1769ms total)
T2288 023:372 JLINK_ReadReg(PSP)  returns 0x2000F690 (0000ms, 1769ms total)
T2288 023:372 JLINK_ReadReg(CFBP)  returns 0x02000000 (0000ms, 1769ms total)
T2288 023:372 JLINK_ReadReg(FPSCR)  returns 0x00000000 (0006ms, 1775ms total)
T2288 023:378 JLINK_ReadReg(FPS0)  returns 0x00000000 (0000ms, 1775ms total)
T2288 023:378 JLINK_ReadReg(FPS1)  returns 0x00000000 (0000ms, 1775ms total)
T2288 023:378 JLINK_ReadReg(FPS2)  returns 0x00000000 (0000ms, 1775ms total)
T2288 023:378 JLINK_ReadReg(FPS3)  returns 0x00000000 (0000ms, 1775ms total)
T2288 023:378 JLINK_ReadReg(FPS4)  returns 0x00000000 (0000ms, 1775ms total)
T2288 023:378 JLINK_ReadReg(FPS5)  returns 0x00000000 (0000ms, 1775ms total)
T2288 023:378 JLINK_ReadReg(FPS6)  returns 0x00000000 (0000ms, 1775ms total)
T2288 023:378 JLINK_ReadReg(FPS7)  returns 0x00000000 (0000ms, 1775ms total)
T2288 023:378 JLINK_ReadReg(FPS8)  returns 0x00000000 (0000ms, 1775ms total)
T2288 023:378 JLINK_ReadReg(FPS9)  returns 0x00000000 (0000ms, 1775ms total)
T2288 023:378 JLINK_ReadReg(FPS10)  returns 0x00000000 (0000ms, 1775ms total)
T2288 023:378 JLINK_ReadReg(FPS11)  returns 0x00000000 (0000ms, 1775ms total)
T2288 023:378 JLINK_ReadReg(FPS12)  returns 0x00000000 (0000ms, 1775ms total)
T2288 023:378 JLINK_ReadReg(FPS13)  returns 0x00000000 (0000ms, 1775ms total)
T2288 023:378 JLINK_ReadReg(FPS14)  returns 0x00000000 (0000ms, 1775ms total)
T2288 023:378 JLINK_ReadReg(FPS15)  returns 0x00000000 (0000ms, 1775ms total)
T2288 023:378 JLINK_ReadReg(FPS16)  returns 0x00000000 (0000ms, 1775ms total)
T2288 023:378 JLINK_ReadReg(FPS17)  returns 0x00000000 (0000ms, 1775ms total)
T2288 023:378 JLINK_ReadReg(FPS18)  returns 0x00000000 (0000ms, 1775ms total)
T2288 023:378 JLINK_ReadReg(FPS19)  returns 0x00000000 (0000ms, 1775ms total)
T2288 023:378 JLINK_ReadReg(FPS20)  returns 0x00000000 (0000ms, 1775ms total)
T2288 023:378 JLINK_ReadReg(FPS31)  returns 0x00000000 (0000ms, 1775ms total)
T2288 023:378 JLINK_ReadReg(FPS7)  returns 0x00000000 (0000ms, 1775ms total)
T2288 023:378 JLINK_ReadReg(FPS8)  returns 0x00000000 (0001ms, 1776ms total)
T2288 023:379 JLINK_ReadReg(FPS9)  returns 0x00000000 (0000ms, 1776ms total)
T2288 023:379 JLINK_ReadReg(FPS10)  returns 0x00000000 (0000ms, 1776ms total)
T2288 023:379 JLINK_ReadReg(FPS11)  returns 0x00000000 (0000ms, 1776ms total)
T2288 023:379 JLINK_ReadReg(FPS12)  returns 0x00000000 (0000ms, 1776ms total)
T2288 023:379 JLINK_ReadReg(FPS13)  returns 0x00000000 (0000ms, 1776ms total)
T2288 023:379 JLINK_ReadReg(FPS14)  returns 0x00000000 (0000ms, 1776ms total)
T2288 023:379 JLINK_ReadReg(FPS15)  returns 0x00000000 (0000ms, 1776ms total)
T2288 023:379 JLINK_ReadReg(FPS16)  returns 0x00000000 (0000ms, 1776ms total)
T0468 023:379 JLINK_ReadMem (0x2000F6A4, 0x0004 Bytes, ...) -- CPU_ReadMem(64 bytes @ 0x2000F680) -- Updating C cache (64 bytes @ 0x2000F680) -- Read from C cache (4 bytes @ 0x2000F6A4) - Data: 00 00 00 00  returns 0x00 (0002ms, 1778ms total)
T0468 023:386 JLINK_ReadMem (0x2000F6A0, 0x0004 Bytes, ...) -- Read from C cache (4 bytes @ 0x2000F6A0) - Data: A5 A5 A5 A5  returns 0x00 (0000ms, 1778ms total)
T0468 023:386 JLINK_ReadMem (0x2000F6BC, 0x0004 Bytes, ...) -- Read from C cache (4 bytes @ 0x2000F6BC) - Data: 00 00 00 00  returns 0x00 (0000ms, 1778ms total)
T0468 023:386 JLINK_ReadMem (0x00000000, 0x0004 Bytes, ...) -- CPU_ReadMem(4 bytes @ 0x00000004) -- CPU_ReadMem(64 bytes @ 0x08000000) -- Updating C cache (64 bytes @ 0x08000000) -- Read from C cache (4 bytes @ 0x08000000) - Data: 40 FC 01 20  returns 0x00 (0003ms, 1781ms total)
T0468 023:389 JLINK_ReadMemU32(0xE0001004, 0x0001 Items, ...) -- CPU_ReadMem(4 bytes @ 0xE0001004) - Data: 81 76 03 00  returns 0x01 (0001ms, 1782ms total)
T0468 023:391 JLINK_ReadMem (0x20000242, 0x0007 Bytes, ...) -- CPU_ReadMem(64 bytes @ 0x20000240) -- Updating C cache (64 bytes @ 0x20000240) -- Read from C cache (7 bytes @ 0x20000242) - Data: 00 00 00 00 00 00 00  returns 0x00 (0002ms, 1784ms total)
T2288 023:571 JLINK_ReadMem (0x0800288E, 0x0002 Bytes, ...) -- CPU_ReadMem(64 bytes @ 0x08002880) -- Updating C cache (64 bytes @ 0x08002880) -- Read from C cache (2 bytes @ 0x0800288E) - Data: FF F7  returns 0x00 (0002ms, 1786ms total)
T2288 023:573 JLINK_ReadMem (0x08002890, 0x003C Bytes, ...) -- CPU_ReadMem(64 bytes @ 0x080028C0) -- Updating C cache (64 bytes @ 0x080028C0) -- Read from C cache (60 bytes @ 0x08002890) - Data: 21 FD FE F7 3D F9 FE F7 D5 F8 FF F7 7B FF 01 F0 ...  returns 0x00 (0002ms, 1788ms total)
T2288 023:575 JLINK_SetBPEx(Addr = 0x08002892, Type = 0xFFFFFFF2)  returns 0x00000008 (0000ms, 1788ms total)
T2288 023:575 JLINK_SetBPEx(Addr = 0x0800B64A, Type = 0xFFFFFFF2)  returns 0x00000009 (0000ms, 1788ms total)
T2288 023:575 JLINK_SetBPEx(Addr = 0x0800288A, Type = 0xFFFFFFF2)  returns 0x0000000A (0000ms, 1788ms total)
T2288 023:575 JLINK_Go() -- CPU_WriteMem(4 bytes @ 0xE0002000) -- CPU_WriteMem(4 bytes @ 0xE0002000) -- CPU_WriteMem(4 bytes @ 0xE0002000) -- CPU_WriteMem(4 bytes @ 0xE0002008) (0005ms, 1793ms total)
T2288 023:681 JLINK_IsHalted()  returns TRUE (0005ms, 1798ms total)
T2288 023:686 JLINK_Halt()  returns 0x00 (0000ms, 1793ms total)
T2288 023:686 JLINK_IsHalted()  returns TRUE (0000ms, 1793ms total)
T2288 023:686 JLINK_IsHalted()  returns TRUE (0000ms, 1793ms total)
T2288 023:686 JLINK_IsHalted()  returns TRUE (0000ms, 1793ms total)
T2288 023:686 JLINK_ReadReg(R15 (PC))  returns 0x08002892 (0000ms, 1793ms total)
T2288 023:686 JLINK_ReadReg(XPSR)  returns 0x41000000 (0000ms, 1793ms total)
T2288 023:686 JLINK_ClrBPEx(BPHandle = 0x00000008)  returns 0x00 (0000ms, 1793ms total)
T2288 023:686 JLINK_ClrBPEx(BPHandle = 0x00000009)  returns 0x00 (0000ms, 1793ms total)
T2288 023:686 JLINK_ClrBPEx(BPHandle = 0x0000000A)  returns 0x00 (0000ms, 1793ms total)
T2288 023:686 JLINK_ReadMemU32(0xE000ED30, 0x0001 Items, ...) -- CPU_ReadMem(4 bytes @ 0xE000ED30) - Data: 03 00 00 00  returns 0x01 (0001ms, 1794ms total)
T2288 023:687 JLINK_ReadMemU32(0xE0001028, 0x0001 Items, ...) -- CPU_ReadMem(4 bytes @ 0xE0001028) - Data: 00 00 00 00  returns 0x01 (0001ms, 1795ms total)
T2288 023:688 JLINK_ReadMemU32(0xE0001038, 0x0001 Items, ...) -- CPU_ReadMem(4 bytes @ 0xE0001038) - Data: 00 02 00 00  returns 0x01 (0001ms, 1796ms total)
T2288 023:689 JLINK_ReadMemU32(0xE0001048, 0x0001 Items, ...) -- CPU_ReadMem(4 bytes @ 0xE0001048) - Data: 00 00 00 00  returns 0x01 (0001ms, 1797ms total)
T2288 023:690 JLINK_ReadMemU32(0xE0001058, 0x0001 Items, ...) -- CPU_ReadMem(4 bytes @ 0xE0001058) - Data: 00 00 00 00  returns 0x01 (0001ms, 1798ms total)
T2288 023:691 JLINK_ReadReg(R0)  returns 0x00000000 (0001ms, 1799ms total)
T2288 023:692 JLINK_ReadReg(R1)  returns 0x00000000 (0000ms, 1799ms total)
T2288 023:692 JLINK_ReadReg(R2)  returns 0x6D010000 (0000ms, 1799ms total)
T2288 023:692 JLINK_ReadReg(R3)  returns 0x0000008F (0000ms, 1799ms total)
T2288 023:692 JLINK_ReadReg(R4)  returns 0xA5A5A5A5 (0000ms, 1799ms total)
T2288 023:692 JLINK_ReadReg(R5)  returns 0xA5A5A5A5 (0000ms, 1799ms total)
T2288 023:692 JLINK_ReadReg(R6)  returns 0xA5A5A5A5 (0000ms, 1799ms total)
T2288 023:692 JLINK_ReadReg(R7)  returns 0xA5A5A5A5 (0000ms, 1799ms total)
T2288 023:692 JLINK_ReadReg(R8)  returns 0xA5A5A5A5 (0000ms, 1799ms total)
T2288 023:692 JLINK_ReadReg(R9)  returns 0xA5A5A5A5 (0000ms, 1799ms total)
T2288 023:692 JLINK_ReadReg(R10)  returns 0xA5A5A5A5 (0000ms, 1799ms total)
T2288 023:692 JLINK_ReadReg(R11)  returns 0xA5A5A5A5 (0000ms, 1799ms total)
T2288 023:692 JLINK_ReadReg(R12)  returns 0x00000150 (0000ms, 1799ms total)
T2288 023:692 JLINK_ReadReg(R13 (SP))  returns 0x2000F690 (0000ms, 1799ms total)
T2288 023:692 JLINK_ReadReg(R14)  returns 0x0800240F (0001ms, 1800ms total)
T2288 023:693 JLINK_ReadReg(R15 (PC))  returns 0x08002892 (0000ms, 1800ms total)
T2288 023:693 JLINK_ReadReg(XPSR)  returns 0x41000000 (0000ms, 1800ms total)
T2288 023:693 JLINK_ReadReg(MSP)  returns 0x2001FC20 (0000ms, 1800ms total)
T2288 023:693 JLINK_ReadReg(PSP)  returns 0x2000F690 (0000ms, 1800ms total)
T2288 023:693 JLINK_ReadReg(CFBP)  returns 0x02000000 (0000ms, 1800ms total)
T2288 023:693 JLINK_ReadReg(FPSCR)  returns 0x00000000 (0006ms, 1806ms total)
T2288 023:699 JLINK_ReadReg(FPS0)  returns 0x00000000 (0000ms, 1806ms total)
T2288 023:699 JLINK_ReadReg(FPS1)  returns 0x00000000 (0000ms, 1806ms total)
T2288 023:699 JLINK_ReadReg(FPS2)  returns 0x00000000 (0000ms, 1806ms total)
T2288 023:699 JLINK_ReadReg(FPS3)  returns 0x00000000 (0000ms, 1806ms total)
T2288 023:699 JLINK_ReadReg(FPS4)  returns 0x00000000 (0000ms, 1806ms total)
T2288 023:699 JLINK_ReadReg(FPS5)  returns 0x00000000 (0001ms, 1807ms total)
T2288 023:700 JLINK_ReadReg(FPS6)  returns 0x00000000 (0000ms, 1807ms total)
T2288 023:700 JLINK_ReadReg(FPS7)  returns 0x00000000 (0000ms, 1807ms total)
T2288 023:700 JLINK_ReadReg(FPS8)  returns 0x00000000 (0000ms, 1807ms total)
T2288 023:700 JLINK_ReadReg(FPS9)  returns 0x00000000 (0000ms, 1807ms total)
T2288 023:700 JLINK_ReadReg(FPS10)  returns 0x00000000 (0000ms, 1807ms total)
T2288 023:700 JLINK_ReadReg(FPS11)  returns 0x00000000 (0000ms, 1807ms total)
T2288 023:700 JLINK_ReadReg(FPS12)  returns 0x00000000 (0000ms, 1807ms total)
T2288 023:700 JLINK_ReadReg(FPS13)  returns 0x00000000 (0000ms, 1807ms total)
T2288 023:700 JLINK_ReadReg(FPS14)  returns 0x00000000 (0000ms, 1807ms total)
T2288 023:700 JLINK_ReadReg(FPS15)  returns 0x00000000 (0000ms, 1807ms total)
T2288 023:700 JLINK_ReadReg(FPS16)  returns 0x00000000 (0000ms, 1807ms total)
T2288 023:700 JLINK_ReadReg(FPS17)  returns 0x00000000 (0000ms, 1807ms total)
T2288 023:700 JLINK_ReadReg(FPS18)  returns 0x00000000 (0001ms, 1808ms total)
T2288 023:701 JLINK_ReadReg(FPS19)  returns 0x00000000 (0000ms, 1808ms total)
T2288 023:701 JLINK_ReadReg(FPS20)  returns 0x00000000 (0000ms, 1808ms total)
T2288 023:701 JLINK_ReadReg(FPS31)  returns 0x00000000 (0000ms, 1808ms total)
T2288 023:701 JLINK_ReadReg(FPS7)  returns 0x00000000 (0000ms, 1808ms total)
T2288 023:701 JLINK_ReadReg(FPS8)  returns 0x00000000 (0000ms, 1808ms total)
T2288 023:701 JLINK_ReadReg(FPS9)  returns 0x00000000 (0000ms, 1808ms total)
T2288 023:701 JLINK_ReadReg(FPS10)  returns 0x00000000 (0000ms, 1808ms total)
T2288 023:701 JLINK_ReadReg(FPS11)  returns 0x00000000 (0000ms, 1808ms total)
T2288 023:701 JLINK_ReadReg(FPS12)  returns 0x00000000 (0000ms, 1808ms total)
T2288 023:701 JLINK_ReadReg(FPS13)  returns 0x00000000 (0000ms, 1808ms total)
T2288 023:701 JLINK_ReadReg(FPS14)  returns 0x00000000 (0000ms, 1808ms total)
T2288 023:701 JLINK_ReadReg(FPS15)  returns 0x00000000 (0000ms, 1808ms total)
T2288 023:701 JLINK_ReadReg(FPS16)  returns 0x00000000 (0001ms, 1809ms total)
T0468 023:703 JLINK_ReadMem (0x2000F6A4, 0x0004 Bytes, ...) -- CPU_ReadMem(64 bytes @ 0x2000F680) -- Updating C cache (64 bytes @ 0x2000F680) -- Read from C cache (4 bytes @ 0x2000F6A4) - Data: 00 00 00 00  returns 0x00 (0002ms, 1811ms total)
T0468 023:722 JLINK_ReadMem (0x2000F6A0, 0x0004 Bytes, ...) -- Read from C cache (4 bytes @ 0x2000F6A0) - Data: A5 A5 A5 A5  returns 0x00 (0000ms, 1811ms total)
T0468 023:722 JLINK_ReadMem (0x2000F6AC, 0x0004 Bytes, ...) -- Read from C cache (4 bytes @ 0x2000F6AC) - Data: A5 A5 A5 A5  returns 0x00 (0000ms, 1811ms total)
T0468 023:722 JLINK_ReadMem (0x2000F6A8, 0x0004 Bytes, ...) -- Read from C cache (4 bytes @ 0x2000F6A8) - Data: A5 A5 A5 A5  returns 0x00 (0000ms, 1811ms total)
T0468 023:727 JLINK_ReadMem (0x00000000, 0x0004 Bytes, ...) -- CPU_ReadMem(4 bytes @ 0x00000004) -- CPU_ReadMem(64 bytes @ 0x08000000) -- Updating C cache (64 bytes @ 0x08000000) -- Read from C cache (4 bytes @ 0x08000000) - Data: 40 FC 01 20  returns 0x00 (0003ms, 1814ms total)
T0468 023:739 JLINK_ReadMemU32(0xE0001004, 0x0001 Items, ...) -- CPU_ReadMem(4 bytes @ 0xE0001004) - Data: DE 47 BC 00  returns 0x01 (0002ms, 1816ms total)
T0468 023:743 JLINK_ReadMem (0x20000242, 0x0007 Bytes, ...) -- CPU_ReadMem(64 bytes @ 0x20000240) -- Updating C cache (64 bytes @ 0x20000240) -- Read from C cache (7 bytes @ 0x20000242) - Data: 00 00 00 00 00 00 00  returns 0x00 (0002ms, 1818ms total)
T2288 023:924 JLINK_ReadMem (0x08002892, 0x0002 Bytes, ...) -- CPU_ReadMem(64 bytes @ 0x08002880) -- Updating C cache (64 bytes @ 0x08002880) -- Read from C cache (2 bytes @ 0x08002892) - Data: FE F7  returns 0x00 (0004ms, 1822ms total)
T2288 023:928 JLINK_ReadMem (0x08002894, 0x003C Bytes, ...) -- CPU_ReadMem(64 bytes @ 0x080028C0) -- Updating C cache (64 bytes @ 0x080028C0) -- Read from C cache (60 bytes @ 0x08002894) - Data: 3D F9 FE F7 D5 F8 FF F7 7B FF 01 F0 E5 F8 01 F0 ...  returns 0x00 (0002ms, 1824ms total)
T2288 023:930 JLINK_SetBPEx(Addr = 0x08002896, Type = 0xFFFFFFF2)  returns 0x0000000B (0000ms, 1824ms total)
T2288 023:930 JLINK_SetBPEx(Addr = 0x0800B64A, Type = 0xFFFFFFF2)  returns 0x0000000C (0000ms, 1824ms total)
T2288 023:930 JLINK_SetBPEx(Addr = 0x0800288A, Type = 0xFFFFFFF2)  returns 0x0000000D (0000ms, 1824ms total)
T2288 023:930 JLINK_Go() -- CPU_WriteMem(4 bytes @ 0xE0002000) -- CPU_WriteMem(4 bytes @ 0xE0002000) -- CPU_WriteMem(4 bytes @ 0xE0002000) -- CPU_WriteMem(4 bytes @ 0xE0002008) (0005ms, 1829ms total)
T2288 024:036 JLINK_IsHalted()  returns FALSE (0001ms, 1830ms total)
T2288 024:138 JLINK_IsHalted()  returns FALSE (0001ms, 1830ms total)
T2288 024:240 JLINK_IsHalted()  returns FALSE (0001ms, 1830ms total)
T2288 024:342 JLINK_IsHalted()  returns FALSE (0001ms, 1830ms total)
T2288 024:444 JLINK_IsHalted()  returns FALSE (0001ms, 1830ms total)
T2288 024:546 JLINK_IsHalted()  returns FALSE (0001ms, 1830ms total)
T2288 024:648 JLINK_IsHalted()  returns FALSE (0001ms, 1830ms total)
T2288 024:750 JLINK_IsHalted()  returns FALSE (0001ms, 1830ms total)
T2288 024:852 JLINK_IsHalted()  returns FALSE (0001ms, 1830ms total)
T2288 024:956 JLINK_IsHalted()  returns FALSE (0001ms, 1830ms total)
T2288 025:058 JLINK_IsHalted()  returns FALSE (0001ms, 1830ms total)
T2288 025:160 JLINK_IsHalted()  returns FALSE (0001ms, 1830ms total)
T2288 025:262 JLINK_IsHalted()  returns FALSE (0001ms, 1830ms total)
T2288 025:364 JLINK_IsHalted()  returns FALSE (0002ms, 1831ms total)
T2288 025:467 JLINK_IsHalted()  returns FALSE (0001ms, 1830ms total)
T2288 025:569 JLINK_IsHalted()  returns TRUE (0005ms, 1834ms total)
T2288 025:574 JLINK_Halt()  returns 0x00 (0000ms, 1829ms total)
T2288 025:574 JLINK_IsHalted()  returns TRUE (0000ms, 1829ms total)
T2288 025:574 JLINK_IsHalted()  returns TRUE (0000ms, 1829ms total)
T2288 025:574 JLINK_IsHalted()  returns TRUE (0000ms, 1829ms total)
T2288 025:574 JLINK_ReadReg(R15 (PC))  returns 0x08002896 (0000ms, 1829ms total)
T2288 025:574 JLINK_ReadReg(XPSR)  returns 0x81000000 (0000ms, 1829ms total)
T2288 025:575 JLINK_ClrBPEx(BPHandle = 0x0000000B)  returns 0x00 (0000ms, 1830ms total)
T2288 025:575 JLINK_ClrBPEx(BPHandle = 0x0000000C)  returns 0x00 (0000ms, 1830ms total)
T2288 025:575 JLINK_ClrBPEx(BPHandle = 0x0000000D)  returns 0x00 (0000ms, 1830ms total)
T2288 025:575 JLINK_ReadMemU32(0xE000ED30, 0x0001 Items, ...) -- CPU_ReadMem(4 bytes @ 0xE000ED30) - Data: 03 00 00 00  returns 0x01 (0001ms, 1831ms total)
T2288 025:576 JLINK_ReadMemU32(0xE0001028, 0x0001 Items, ...) -- CPU_ReadMem(4 bytes @ 0xE0001028) - Data: 00 00 00 00  returns 0x01 (0001ms, 1832ms total)
T2288 025:577 JLINK_ReadMemU32(0xE0001038, 0x0001 Items, ...) -- CPU_ReadMem(4 bytes @ 0xE0001038) - Data: 00 02 00 00  returns 0x01 (0001ms, 1833ms total)
T2288 025:578 JLINK_ReadMemU32(0xE0001048, 0x0001 Items, ...) -- CPU_ReadMem(4 bytes @ 0xE0001048) - Data: 00 00 00 00  returns 0x01 (0001ms, 1834ms total)
T2288 025:579 JLINK_ReadMemU32(0xE0001058, 0x0001 Items, ...) -- CPU_ReadMem(4 bytes @ 0xE0001058) - Data: 00 00 00 00  returns 0x01 (0001ms, 1835ms total)
T2288 025:580 JLINK_ReadReg(R0)  returns 0x00000009 (0000ms, 1835ms total)
T2288 025:580 JLINK_ReadReg(R1)  returns 0x00000000 (0001ms, 1836ms total)
T2288 025:581 JLINK_ReadReg(R2)  returns 0x00000000 (0000ms, 1836ms total)
T2288 025:581 JLINK_ReadReg(R3)  returns 0x00000000 (0000ms, 1836ms total)
T2288 025:581 JLINK_ReadReg(R4)  returns 0xA5A5A5A5 (0000ms, 1836ms total)
T2288 025:581 JLINK_ReadReg(R5)  returns 0xA5A5A5A5 (0000ms, 1836ms total)
T2288 025:581 JLINK_ReadReg(R6)  returns 0xA5A5A5A5 (0000ms, 1836ms total)
T2288 025:581 JLINK_ReadReg(R7)  returns 0xA5A5A5A5 (0000ms, 1836ms total)
T2288 025:581 JLINK_ReadReg(R8)  returns 0xA5A5A5A5 (0000ms, 1836ms total)
T2288 025:581 JLINK_ReadReg(R9)  returns 0xA5A5A5A5 (0000ms, 1836ms total)
T2288 025:581 JLINK_ReadReg(R10)  returns 0xA5A5A5A5 (0000ms, 1836ms total)
T2288 025:581 JLINK_ReadReg(R11)  returns 0xA5A5A5A5 (0000ms, 1836ms total)
T2288 025:581 JLINK_ReadReg(R12)  returns 0x00000150 (0000ms, 1836ms total)
T2288 025:581 JLINK_ReadReg(R13 (SP))  returns 0x2000F690 (0000ms, 1836ms total)
T2288 025:581 JLINK_ReadReg(R14)  returns 0x080114F5 (0000ms, 1836ms total)
T2288 025:581 JLINK_ReadReg(R15 (PC))  returns 0x08002896 (0000ms, 1836ms total)
T2288 025:581 JLINK_ReadReg(XPSR)  returns 0x81000000 (0000ms, 1836ms total)
T2288 025:581 JLINK_ReadReg(MSP)  returns 0x2001FC20 (0000ms, 1836ms total)
T2288 025:581 JLINK_ReadReg(PSP)  returns 0x2000F690 (0000ms, 1836ms total)
T2288 025:581 JLINK_ReadReg(CFBP)  returns 0x02000000 (0000ms, 1836ms total)
T2288 025:581 JLINK_ReadReg(FPSCR)  returns 0x00000000 (0007ms, 1843ms total)
T2288 025:588 JLINK_ReadReg(FPS0)  returns 0x00000000 (0000ms, 1843ms total)
T2288 025:588 JLINK_ReadReg(FPS1)  returns 0x00000000 (0000ms, 1843ms total)
T2288 025:588 JLINK_ReadReg(FPS2)  returns 0x00000000 (0000ms, 1843ms total)
T2288 025:588 JLINK_ReadReg(FPS3)  returns 0x00000000 (0000ms, 1843ms total)
